,v_in,v_out
0,23205.0,3193.0
1,22973.0,3195.0
2,22733.0,3197.0
3,22970.0,3192.0
4,23208.0,3192.0
5,23443.0,3194.0
6,23695.0,3189.0
7,23952.0,3192.0
8,24208.0,3188.0
9,24472.0,3183.0
10,24740.0,3174.0
11,25016.0,3170.0
12,25296.0,3175.0
13,25586.0,3175.0
14,25879.0,3177.0
15,26174.0,3181.0
16,26478.0,3174.0
17,26796.0,3166.0
18,27118.0,3163.0
19,27447.0,3147.0
20,27785.0,3145.0
21,28131.0,3148.0
22,28482.0,3140.0
23,28844.0,3151.0
24,29220.0,3152.0
25,29593.0,3134.0
26,29987.0,3119.0
27,30387.0,3106.0
28,30798.0,3093.0
29,31228.0,3093.0
30,31663.0,3099.0
31,32113.0,3088.0
32,32575.0,3076.0
33,33047.0,3060.0
34,33538.0,3028.0
35,34036.0,2983.0
36,34558.0,2949.0
37,35090.0,2894.0
38,35629.0,2799.0
39,36178.0,2622.0
40,37309.0,2154.0
41,37872.0,1920.0
42,38452.0,1666.0
43,39044.0,1428.0
44,39660.0,1182.0
45,40291.0,926.0
46,40959.0,648.0
47,41657.0,362.0
48,42353.0,71.0
49,42465.0,34.0
50,42465.0,34.0
51,43602.0,76.0
52,44379.0,37.0
53,44379.0,36.0
54,44377.0,34.0
55,44376.0,34.0
56,44378.0,34.0
57,44379.0,35.0
58,44379.0,32.0
59,44378.0,33.0
60,44377.0,31.0
61,44379.0,32.0
62,44375.0,33.0
63,44377.0,30.0
64,44377.0,32.0
65,44380.0,34.0
66,44378.0,34.0
67,44379.0,33.0
68,44377.0,34.0
69,44379.0,35.0
70,44380.0,35.0
71,44378.0,36.0
72,44377.0,37.0
73,44378.0,32.0
74,44381.0,34.0
75,44379.0,36.0
76,44252.0,104.0
77,43310.0,549.0
78,42572.0,903.0
79,41883.0,1222.0
80,41217.0,1533.0
81,40571.0,1839.0
82,39320.0,2407.0
83,38681.0,2723.0
84,38060.0,3031.0
85,37463.0,3312.0
86,36867.0,3488.0
87,36282.0,3573.0
88,35708.0,3613.0
89,35157.0,3630.0
90,34621.0,3653.0
91,34102.0,3679.0
92,33597.0,3709.0
93,33105.0,3739.0
94,32626.0,3758.0
95,32159.0,3754.0
96,31717.0,3761.0
97,31274.0,3753.0
98,30848.0,3762.0
99,30435.0,3771.0
100,30032.0,3783.0
101,29641.0,3807.0
102,29261.0,3817.0
103,28892.0,3816.0
104,28523.0,3809.0
105,28175.0,3813.0
106,27827.0,3820.0
107,27488.0,3833.0
108,27161.0,3843.0
109,26839.0,3859.0
110,26519.0,3849.0
111,26209.0,3846.0
112,25913.0,3844.0
113,25620.0,3850.0
114,25330.0,3848.0
115,49.0,3860.0
116,24770.0,3860.0
117,24501.0,3861.0
118,24238.0,3868.0
119,23979.0,3863.0
120,23725.0,3869.0
121,23480.0,3863.0
122,23241.0,3867.0
123,22997.0,3868.0
124,22769.0,3875.0
125,22997.0,3878.0
126,23239.0,3871.0
127,23477.0,3866.0
128,23723.0,3863.0
129,23978.0,3862.0
130,24238.0,3864.0
131,24505.0,3857.0
132,24773.0,3861.0
133,25049.0,3865.0
134,25333.0,3863.0
135,25625.0,3857.0
136,25916.0,3845.0
137,26211.0,3843.0
138,26519.0,3833.0
139,26837.0,3835.0
140,27162.0,3840.0
141,27489.0,3846.0
142,27830.0,3846.0
143,28176.0,3829.0
144,28520.0,3810.0
145,28888.0,3809.0
146,29264.0,3794.0
147,29641.0,3797.0
148,30034.0,3808.0
149,30440.0,3809.0
150,30853.0,3817.0
151,31282.0,3787.0
152,31720.0,3777.0
153,32164.0,3751.0
154,32629.0,3734.0
155,33104.0,3733.0
156,33603.0,3731.0
157,34104.0,3723.0
158,34628.0,3711.0
159,35162.0,3677.0
160,35712.0,3638.0
161,36284.0,3570.0
162,36869.0,3478.0
163,37461.0,3293.0
164,38686.0,2762.0
165,39329.0,2464.0
166,39947.0,2165.0
167,40570.0,1848.0
168,41223.0,1546.0
169,41887.0,1222.0
170,42572.0,905.0
171,43301.0,555.0
172,44052.0,186.0
173,44396.0,33.0
174,44539.0,32.0
175,44540.0,34.0
176,44540.0,35.0
177,44486.0,33.0
178,44488.0,36.0
179,44487.0,37.0
180,44488.0,34.0
181,44488.0,32.0
182,44489.0,31.0
183,44489.0,32.0
184,44488.0,33.0
185,44489.0,32.0
186,44489.0,32.0
187,44489.0,30.0
188,44485.0,34.0
189,44487.0,33.0
190,44488.0,31.0
191,44486.0,35.0
192,44489.0,35.0
193,44487.0,33.0
194,44488.0,33.0
195,44486.0,34.0
196,44486.0,37.0
197,44485.0,36.0
198,44481.0,277.0
199,43297.0,549.0
200,42570.0,891.0
201,41888.0,1227.0
202,41226.0,1555.0
203,40571.0,1846.0
204,39946.0,2158.0
205,38688.0,2765.0
206,38072.0,3042.0
207,37462.0,3303.0
208,36864.0,3465.0
209,36280.0,3555.0
210,35713.0,3627.0
211,35107.0,3109.0
212,34576.0,3160.0
213,34055.0,3180.0
214,33556.0,3180.0
215,33063.0,3208.0
216,32585.0,3203.0
217,32124.0,3226.0
218,31676.0,3255.0
219,31239.0,3268.0
220,30815.0,3284.0
221,30404.0,3281.0
222,29997.0,3270.0
223,29605.0,3272.0
224,29230.0,3270.0
225,28856.0,3289.0
226,28495.0,3300.0
227,28142.0,3307.0
228,27796.0,3315.0
229,27457.0,3305.0
230,27131.0,3310.0
231,26806.0,3309.0
232,26491.0,3312.0
233,26186.0,3317.0
234,25893.0,3329.0
235,25598.0,3335.0
236,25305.0,3329.0
237,25025.0,3331.0
238,24751.0,3328.0
239,24482.0,3331.0
240,24220.0,3335.0
241,23959.0,3341.0
242,23706.0,3347.0
243,23459.0,3347.0
244,23220.0,3350.0
245,22979.0,3346.0
246,22747.0,3351.0
247,22976.0,3349.0
248,23458.0,3349.0
249,23702.0,3351.0
250,23960.0,3348.0
251,24217.0,3348.0
252,24485.0,3340.0
253,24754.0,3336.0
254,25026.0,3330.0
255,25308.0,3328.0
256,25598.0,3329.0
257,25890.0,3331.0
258,26190.0,3329.0
259,26496.0,3324.0
260,26810.0,3316.0
261,27130.0,3304.0
262,27456.0,3299.0
263,27795.0,3293.0
264,28143.0,3281.0
265,28493.0,3281.0
266,28853.0,3290.0
267,29232.0,3294.0
268,29608.0,3270.0
269,30003.0,3261.0
270,30403.0,3243.0
271,30814.0,3232.0
272,31243.0,3232.0
273,31679.0,3234.0
274,32126.0,3236.0
275,32592.0,3225.0
276,33067.0,3204.0
277,33558.0,3176.0
278,34051.0,3132.0
279,34576.0,3094.0
280,35108.0,3058.0
281,35653.0,2985.0
282,36210.0,2857.0
283,36784.0,2683.0
284,37365.0,2375.0
285,37939.0,2134.0
286,38506.0,1870.0
287,39102.0,1616.0
288,40359.0,1151.0
289,41008.0,827.0
290,41692.0,528.0
291,42408.0,227.0
292,42875.0,37.0
293,42992.0,35.0
294,42992.0,35.0
295,42994.0,35.0
296,42990.0,35.0
297,42990.0,35.0
298,42992.0,35.0
299,42961.0,34.0
300,42960.0,35.0
301,42960.0,33.0
302,42959.0,31.0
303,42962.0,31.0
304,42960.0,33.0
305,42959.0,31.0
306,42959.0,29.0
307,42960.0,31.0
308,42960.0,35.0
309,42962.0,31.0
310,42959.0,32.0
311,42959.0,33.0
312,42961.0,31.0
313,42961.0,35.0
314,42958.0,34.0
315,42959.0,35.0
316,42941.0,38.0
317,42943.0,35.0
318,42942.0,34.0
319,42945.0,36.0
320,42942.0,33.0
321,42119.0,482.0
322,41710.0,520.0
323,41006.0,806.0
324,40344.0,1089.0
325,39712.0,1339.0
326,39103.0,1612.0
327,38510.0,1872.0
328,37930.0,2118.0
329,37365.0,2384.0
330,36783.0,2621.0
331,36210.0,2851.0
332,35653.0,2990.0
333,34573.0,3102.0
334,34055.0,3140.0
335,33556.0,3177.0
336,33063.0,3210.0
337,32590.0,3228.0
338,32121.0,3235.0
339,31680.0,3228.0
340,31240.0,3230.0
341,30814.0,3230.0
342,30402.0,3240.0
343,29998.0,3267.0
344,29607.0,3282.0
345,29230.0,3286.0
346,28855.0,3284.0
347,28494.0,3278.0
348,28144.0,3276.0
349,27797.0,3279.0
350,27457.0,3298.0
351,27131.0,3302.0
352,26811.0,3309.0
353,26494.0,3313.0
354,26189.0,3308.0
355,25892.0,3300.0
356,25594.0,3309.0
357,25306.0,3312.0
358,25027.0,3323.0
359,24754.0,3326.0
360,24484.0,3325.0
361,24220.0,3331.0
362,23962.0,3327.0
363,23703.0,3324.0
364,23456.0,3324.0
365,23222.0,3326.0
366,22977.0,3329.0
367,22745.0,3336.0
368,22979.0,3333.0
369,23220.0,3332.0
370,23589.0,6576.0
371,23842.0,6567.0
372,24102.0,6564.0
373,24366.0,6566.0
374,24630.0,6562.0
375,25183.0,6566.0
376,25462.0,6575.0
377,25757.0,6559.0
378,26048.0,6545.0
379,26349.0,6543.0
380,26665.0,6534.0
381,26982.0,6539.0
382,27309.0,6547.0
383,27644.0,6543.0
384,27983.0,6549.0
385,28333.0,6540.0
386,28693.0,6522.0
387,29058.0,6509.0
388,29431.0,6488.0
389,29812.0,6488.0
390,30222.0,6495.0
391,30626.0,6507.0
392,31045.0,6514.0
393,31480.0,6504.0
394,31920.0,6471.0
395,32374.0,6451.0
396,32846.0,6426.0
397,33322.0,6426.0
398,33825.0,6428.0
399,34337.0,6429.0
400,34872.0,6433.0
401,35420.0,6424.0
402,35979.0,6391.0
403,36558.0,6360.0
404,37158.0,6293.0
405,37780.0,6265.0
406,38420.0,6242.0
407,39079.0,6231.0
408,39762.0,6195.0
409,40473.0,6092.0
410,41202.0,5927.0
411,41922.0,5573.0
412,42639.0,5070.0
413,43381.0,4527.0
414,44157.0,3995.0
415,44969.0,3459.0
416,45779.0,2867.0
417,46588.0,2296.0
418,47352.0,1750.0
419,48136.0,1194.0
420,48950.0,574.0
421,49681.0,39.0
422,49861.0,38.0
423,50315.0,38.0
424,339.0,40.0
425,50340.0,40.0
426,50341.0,35.0
427,50340.0,40.0
428,50342.0,33.0
429,50340.0,37.0
430,50341.0,37.0
431,50342.0,38.0
432,50338.0,36.0
433,50339.0,40.0
434,50339.0,38.0
435,50208.0,134.0
436,49089.0,962.0
437,48286.0,1566.0
438,47519.0,2161.0
439,46716.0,2773.0
440,45873.0,3438.0
441,45050.0,4054.0
442,44251.0,4638.0
443,43481.0,5193.0
444,42731.0,5724.0
445,41990.0,6154.0
446,41248.0,6389.0
447,40521.0,6533.0
448,39816.0,6633.0
449,39135.0,6689.0
450,38471.0,6734.0
451,37817.0,6732.0
452,37197.0,6738.0
453,36598.0,6756.0
454,36013.0,6790.0
455,35453.0,6835.0
456,34907.0,6868.0
457,34373.0,6879.0
458,33867.0,6873.0
459,33364.0,6863.0
460,32877.0,6854.0
461,32401.0,6866.0
462,31949.0,6890.0
463,31513.0,6923.0
464,31079.0,6941.0
465,30658.0,6939.0
466,29844.0,6918.0
467,29460.0,6925.0
468,29086.0,6936.0
469,28716.0,6955.0
470,28353.0,6964.0
471,28008.0,6978.0
472,27667.0,6978.0
473,27330.0,6965.0
474,27004.0,6962.0
475,26685.0,6962.0
476,26375.0,6968.0
477,26075.0,7098.0
478,25781.0,7109.0
479,25488.0,7117.0
480,25204.0,7106.0
481,24924.0,7100.0
482,24652.0,7097.0
483,24386.0,7102.0
484,24126.0,7111.0
485,23868.0,7110.0
486,23613.0,7112.0
487,23372.0,7117.0
488,23127.0,7121.0
489,22890.0,7124.0
490,23127.0,7113.0
491,23372.0,7112.0
492,23615.0,7111.0
493,23867.0,7111.0
494,24125.0,7120.0
495,24385.0,7120.0
496,24649.0,7102.0
497,24925.0,7100.0
498,25204.0,7091.0
499,25488.0,7087.0
500,25785.0,7096.0
501,26071.0,7094.0
502,26381.0,7099.0
503,26692.0,7099.0
504,27013.0,7087.0
505,27336.0,7072.0
506,27669.0,7055.0
507,28015.0,7054.0
508,28359.0,7049.0
509,28724.0,7058.0
510,29467.0,7067.0
511,29853.0,7057.0
512,30252.0,7042.0
513,30663.0,7012.0
514,31080.0,6994.0
515,31515.0,7004.0
516,31956.0,6993.0
517,32416.0,7016.0
518,32893.0,7024.0
519,33380.0,6999.0
520,33875.0,6984.0
521,34381.0,6955.0
522,34911.0,6916.0
523,35456.0,6893.0
524,36025.0,6892.0
525,36615.0,6906.0
526,37214.0,6896.0
527,37834.0,6873.0
528,38479.0,6821.0
529,39142.0,6761.0
530,39828.0,6676.0
531,40529.0,6602.0
532,41261.0,6486.0
533,42007.0,6298.0
534,42752.0,5892.0
535,43504.0,5339.0
536,44267.0,4757.0
537,45062.0,4121.0
538,45882.0,3486.0
539,46719.0,2833.0
540,47548.0,2230.0
541,48314.0,1645.0
542,49112.0,1037.0
543,49961.0,374.0
544,50418.0,38.0
545,50419.0,37.0
546,50421.0,37.0
547,50421.0,39.0
548,50420.0,38.0
549,50421.0,34.0
550,50421.0,35.0
551,50419.0,39.0
552,50420.0,40.0
553,50420.0,35.0
554,50423.0,40.0
555,50419.0,38.0
556,50176.0,225.0
557,49113.0,1039.0
558,48320.0,1649.0
559,47552.0,2240.0
560,46724.0,2850.0
561,45878.0,3492.0
562,45058.0,4094.0
563,44265.0,4703.0
564,43491.0,5321.0
565,42748.0,5904.0
566,42004.0,6339.0
567,41268.0,6527.0
568,40534.0,6632.0
569,39823.0,6688.0
570,39127.0,6730.0
571,38468.0,6788.0
572,37833.0,6843.0
573,37219.0,6900.0
574,36614.0,6936.0
575,36022.0,6929.0
576,35455.0,6915.0
577,34916.0,6916.0
578,34385.0,6931.0
579,33867.0,6961.0
580,33371.0,6996.0
581,32885.0,7018.0
582,32420.0,7022.0
583,31963.0,7012.0
584,31515.0,7001.0
585,31073.0,7002.0
586,30255.0,7032.0
587,29857.0,7064.0
588,29467.0,7069.0
589,29091.0,7072.0
590,28716.0,7055.0
591,28360.0,7052.0
592,28013.0,7050.0
593,27668.0,7055.0
594,27334.0,7076.0
595,27013.0,7087.0
596,26696.0,7108.0
597,26381.0,7099.0
598,26075.0,7085.0
599,25777.0,7089.0
600,25485.0,7087.0
601,25205.0,7100.0
602,24925.0,7110.0
603,24654.0,7114.0
604,24382.0,7109.0
605,24124.0,7121.0
606,23869.0,7119.0
607,23615.0,7115.0
608,23371.0,7119.0
609,23125.0,7114.0
610,22890.0,7127.0
611,23128.0,7123.0
612,23372.0,7119.0
613,23613.0,7114.0
614,23866.0,7113.0
615,24124.0,7101.0
616,24385.0,7094.0
617,24650.0,7098.0
618,24922.0,7103.0
619,25205.0,7100.0
620,25487.0,7108.0
621,25779.0,7097.0
622,26072.0,7087.0
623,26383.0,7074.0
624,26696.0,7071.0
625,27011.0,7069.0
626,27669.0,7084.0
627,28019.0,7084.0
628,28362.0,7080.0
629,28722.0,7057.0
630,29088.0,7037.0
631,29464.0,7023.0
632,29855.0,7027.0
633,30256.0,7032.0
634,30660.0,7040.0
635,31083.0,7036.0
636,31519.0,7042.0
637,31968.0,7009.0
638,32417.0,6980.0
639,32882.0,6951.0
640,33371.0,6946.0
641,33874.0,6948.0
642,34393.0,6970.0
643,34921.0,6972.0
644,35456.0,6969.0
645,36026.0,6932.0
646,36616.0,6880.0
647,37217.0,6840.0
648,37825.0,6808.0
649,38472.0,6788.0
650,39142.0,6773.0
651,39835.0,6735.0
652,40536.0,6677.0
653,41270.0,6531.0
654,42004.0,6275.0
655,42743.0,5827.0
656,43494.0,5284.0
657,44253.0,4669.0
658,45060.0,4123.0
659,45883.0,3484.0
660,46721.0,2830.0
661,47534.0,2201.0
662,48322.0,1648.0
663,49120.0,1045.0
664,49979.0,345.0
665,50383.0,37.0
666,50522.0,39.0
667,50427.0,36.0
668,50429.0,39.0
669,50426.0,36.0
670,50427.0,32.0
671,50429.0,35.0
672,50431.0,35.0
673,50427.0,38.0
674,50429.0,39.0
675,50428.0,37.0
676,50429.0,38.0
677,50421.0,281.0
678,49121.0,1052.0
679,48302.0,1611.0
680,47528.0,2188.0
681,46718.0,2837.0
682,45884.0,3489.0
683,45064.0,4153.0
684,44260.0,4717.0
685,43495.0,5334.0
686,42743.0,5843.0
687,42002.0,6243.0
688,41261.0,6476.0
689,40527.0,6640.0
690,39826.0,6737.0
691,39144.0,6798.0
692,38478.0,6834.0
693,37829.0,6828.0
694,37204.0,6832.0
695,36608.0,6865.0
696,36023.0,6883.0
697,35462.0,6937.0
698,34917.0,6965.0
699,34388.0,6975.0
700,33873.0,6979.0
701,33371.0,6960.0
702,32880.0,6960.0
703,32412.0,6970.0
704,31956.0,6993.0
705,31520.0,7025.0
706,31082.0,7054.0
707,30252.0,7036.0
708,29852.0,7026.0
709,29464.0,7024.0
710,29088.0,7043.0
711,28716.0,7058.0
712,28357.0,7074.0
713,28017.0,7086.0
714,27674.0,7086.0
715,27335.0,7075.0
716,27006.0,7063.0
717,26691.0,7068.0
718,26381.0,7080.0
719,26076.0,7092.0
720,25781.0,7105.0
721,25485.0,7112.0
722,25203.0,7103.0
723,24925.0,7105.0
724,24651.0,7102.0
725,24382.0,7108.0
726,24122.0,7111.0
727,23865.0,7117.0
728,23617.0,7119.0
729,23373.0,7122.0
730,23124.0,7114.0
731,22887.0,7123.0
732,23127.0,7113.0
733,23374.0,7114.0
734,23618.0,7115.0
735,23864.0,7112.0
736,24119.0,7109.0
737,24386.0,7112.0
738,24651.0,7108.0
739,24924.0,7097.0
740,25204.0,7087.0
741,25484.0,7084.0
742,25778.0,7086.0
743,26073.0,7093.0
744,26382.0,7101.0
745,26692.0,7100.0
746,27008.0,7085.0
747,27670.0,7060.0
748,28016.0,7050.0
749,28356.0,7049.0
750,28719.0,7047.0
751,29093.0,7058.0
752,29470.0,7070.0
753,29854.0,7063.0
754,30252.0,7037.0
755,30660.0,7015.0
756,31077.0,6996.0
757,31513.0,6988.0
758,31962.0,7002.0
759,32416.0,7013.0
760,32890.0,7015.0
761,33372.0,7001.0
762,33874.0,6976.0
763,34389.0,6944.0
764,34916.0,6910.0
765,35458.0,6896.0
766,36019.0,6895.0
767,36613.0,6894.0
768,37225.0,6891.0
769,37843.0,6870.0
770,38481.0,6831.0
771,39136.0,6760.0
772,39826.0,6666.0
773,40530.0,6591.0
774,41267.0,6478.0
775,42006.0,6284.0
776,42743.0,5851.0
777,43490.0,5313.0
778,44264.0,4701.0
779,45058.0,4067.0
780,45878.0,3456.0
781,46711.0,2786.0
782,47527.0,2193.0
783,48306.0,1623.0
784,49100.0,1003.0
785,49963.0,334.0
786,50361.0,36.0
787,50365.0,37.0
788,50364.0,40.0
789,50363.0,39.0
790,50365.0,37.0
791,50364.0,35.0
792,50363.0,36.0
793,50414.0,64.0
794,51167.0,38.0
795,51165.0,38.0
796,51168.0,39.0
797,51169.0,40.0
798,50159.0,867.0
799,49331.0,1555.0
800,48548.0,2192.0
801,47710.0,2864.0
802,46835.0,3549.0
803,46005.0,4233.0
804,45182.0,4886.0
805,44378.0,5530.0
806,43608.0,6185.0
807,42852.0,6742.0
808,42097.0,7051.0
809,41354.0,7191.0
810,40613.0,7260.0
811,39890.0,7299.0
812,39195.0,7331.0
813,38534.0,7384.0
814,37898.0,7452.0
815,37283.0,7502.0
816,36677.0,7537.0
817,36079.0,7537.0
818,35511.0,7524.0
819,34965.0,7518.0
820,34438.0,7536.0
821,33921.0,7559.0
822,33420.0,7609.0
823,32933.0,7625.0
824,32464.0,7623.0
825,32004.0,7623.0
826,31562.0,7611.0
827,31123.0,7615.0
828,30698.0,7608.0
829,30292.0,7636.0
830,29894.0,7667.0
831,29506.0,7677.0
832,29129.0,7676.0
833,28756.0,7666.0
834,28395.0,7658.0
835,27703.0,7658.0
836,27369.0,7686.0
837,27040.0,7697.0
838,26721.0,7703.0
839,26411.0,7703.0
840,26106.0,7696.0
841,25805.0,7694.0
842,25515.0,7700.0
843,25227.0,7699.0
844,24947.0,7715.0
845,24677.0,7729.0
846,24410.0,7725.0
847,24148.0,7726.0
848,23892.0,7719.0
849,23639.0,7723.0
850,23392.0,7730.0
851,23149.0,7734.0
852,22913.0,7740.0
853,23147.0,7734.0
854,23394.0,7730.0
855,23642.0,7729.0
856,23895.0,7729.0
857,24150.0,7725.0
858,24407.0,7724.0
859,24675.0,7712.0
860,24950.0,7719.0
861,25231.0,7729.0
862,25520.0,7729.0
863,25807.0,7715.0
864,26103.0,7696.0
865,26408.0,7687.0
866,26723.0,7687.0
867,27041.0,7679.0
868,27368.0,7692.0
869,27702.0,7692.0
870,28048.0,7697.0
871,28397.0,7691.0
872,28757.0,7671.0
873,29127.0,7658.0
874,29498.0,7630.0
875,29886.0,7644.0
876,30294.0,7640.0
877,31123.0,7667.0
878,31561.0,7651.0
879,32003.0,7624.0
880,32462.0,7596.0
881,32934.0,7568.0
882,33416.0,7570.0
883,33919.0,7555.0
884,34438.0,7571.0
885,34978.0,7580.0
886,35522.0,7565.0
887,36082.0,7536.0
888,36667.0,7492.0
889,37270.0,7437.0
890,37898.0,7407.0
891,38545.0,7394.0
892,39206.0,7386.0
893,39895.0,7367.0
894,40613.0,7294.0
895,41355.0,7185.0
896,42099.0,7023.0
897,42851.0,6689.0
898,43602.0,6137.0
899,44378.0,5523.0
900,45259.0,5403.0
901,46082.0,4745.0
902,46918.0,4040.0
903,47782.0,3292.0
904,48666.0,2513.0
905,49461.0,1831.0
906,50260.0,1144.0
907,51094.0,444.0
908,51584.0,38.0
909,51585.0,40.0
910,51586.0,37.0
911,51585.0,37.0
912,51588.0,37.0
913,51586.0,37.0
914,51588.0,35.0
915,51587.0,36.0
916,51585.0,40.0
917,51586.0,39.0
918,51338.0,242.0
919,50262.0,1148.0
920,49459.0,1833.0
921,48668.0,2499.0
922,47780.0,3252.0
923,46918.0,4011.0
924,46082.0,4751.0
925,45258.0,5466.0
926,44462.0,6108.0
927,43694.0,6732.0
928,42918.0,7180.0
929,42141.0,7412.0
930,41382.0,7546.0
931,40653.0,7652.0
932,39945.0,7763.0
933,39256.0,7812.0
934,38582.0,7837.0
935,37935.0,7826.0
936,37313.0,7820.0
937,36712.0,7852.0
938,36109.0,7892.0
939,35545.0,7938.0
940,35007.0,7970.0
941,34476.0,7985.0
942,33955.0,7975.0
943,33448.0,7967.0
944,32958.0,7953.0
945,32491.0,7972.0
946,32029.0,8005.0
947,31589.0,8035.0
948,31151.0,8051.0
949,30727.0,8047.0
950,30326.0,8045.0
951,29915.0,8027.0
952,29523.0,8032.0
953,29147.0,8035.0
954,28778.0,8053.0
955,28422.0,8084.0
956,28074.0,8096.0
957,27723.0,8093.0
958,27390.0,8073.0
959,27063.0,8071.0
960,26743.0,8078.0
961,26427.0,8082.0
962,25829.0,8114.0
963,25534.0,8123.0
964,25247.0,8111.0
965,24965.0,8107.0
966,24689.0,8109.0
967,24420.0,8117.0
968,24165.0,8126.0
969,23910.0,8129.0
970,23655.0,8127.0
971,23405.0,8124.0
972,23163.0,8129.0
973,22927.0,8130.0
974,23161.0,8122.0
975,23406.0,8127.0
976,23657.0,8120.0
977,23910.0,8128.0
978,24167.0,8124.0
979,24421.0,8120.0
980,24687.0,8115.0
981,24967.0,8103.0
982,25249.0,8102.0
983,25529.0,8095.0
984,25822.0,8093.0
985,26125.0,8096.0
986,26432.0,8104.0
987,26747.0,8107.0
988,27061.0,8098.0
989,27388.0,8077.0
990,27725.0,8062.0
991,28070.0,8053.0
992,28417.0,8046.0
993,28776.0,8050.0
994,29153.0,8065.0
995,29529.0,8071.0
996,29920.0,8071.0
997,30320.0,8037.0
998,30722.0,8018.0
999,31146.0,7991.0
1000,31587.0,7984.0
1001,32027.0,8000.0
1002,32493.0,8012.0
1003,32964.0,8010.0
1004,33458.0,8011.0
1005,34472.0,7949.0
1006,35001.0,7905.0
1007,35544.0,7884.0
1008,36117.0,7889.0
1009,36717.0,7902.0
1010,37318.0,7912.0
1011,37936.0,7883.0
1012,38585.0,7831.0
1013,39254.0,7764.0
1014,39942.0,7689.0
1015,40653.0,7631.0
1016,41388.0,7552.0
1017,42145.0,7448.0
1018,42929.0,7227.0
1019,43698.0,6772.0
1020,44466.0,6127.0
1021,45257.0,5440.0
1022,46075.0,4720.0
1023,46915.0,3972.0
1024,47783.0,3283.0
1025,48669.0,2531.0
1026,49460.0,1859.0
1027,50267.0,1165.0
1028,51093.0,440.0
1029,51603.0,41.0
1030,51605.0,38.0
1031,51603.0,39.0
1032,51606.0,37.0
1033,51604.0,37.0
1034,51604.0,37.0
1035,51604.0,35.0
1036,51602.0,39.0
1037,51607.0,41.0
1038,51604.0,38.0
1039,51604.0,40.0
1040,51350.0,248.0
1041,50270.0,1165.0
1042,49460.0,1854.0
1043,48680.0,2523.0
1044,47786.0,3315.0
1045,46917.0,4040.0
1046,46079.0,4719.0
1047,44456.0,6062.0
1048,43684.0,6742.0
1049,42915.0,7236.0
1050,42152.0,7484.0
1051,41404.0,7602.0
1052,40656.0,7673.0
1053,39932.0,7710.0
1054,39237.0,7727.0
1055,38573.0,7780.0
1056,37940.0,7839.0
1057,37314.0,7902.0
1058,36711.0,7922.0
1059,36115.0,7927.0
1060,35554.0,7912.0
1061,35002.0,7906.0
1062,34468.0,7930.0
1063,33947.0,7949.0
1064,33452.0,7982.0
1065,32968.0,8014.0
1066,32497.0,8027.0
1067,32029.0,8016.0
1068,31583.0,8007.0
1069,31148.0,7997.0
1070,30725.0,8009.0
1071,30319.0,8028.0
